! WJ Communications, Inc.
! AG203-63 InGaP HBT Gain Block
!
! The data is for the unmatched device in a 50 Ohm fixture, de-embedded to the device leads.
! Device bias: +4.05 V @ 20 mA -> Note a bias dropping resistor must be used for proper operation.
! Data From 20363a.s2p
! 
# MHZ S DB R 50
45.000000 -2.5367E+01  2.2143E+00  2.0587E+01  1.7776E+02 -2.3176E+01  1.7804E+00 -1.4132E+01 -3.1888E+00 
61.137501 -2.4731E+01  2.8932E+00  2.0560E+01  1.7706E+02 -2.3267E+01  1.9075E+00 -1.4244E+01 -3.7882E+00 
77.275002 -2.4600E+01  6.5990E+00  2.0566E+01  1.7634E+02 -2.3547E+01  1.2067E+00 -1.4033E+01 -2.5100E+00 
93.412498 -2.5179E+01  7.8944E+00  2.0527E+01  1.7568E+02 -2.3635E+01  1.0064E+00 -1.4086E+01 -3.2141E+00 
109.550003 -2.5005E+01  1.0721E+01  2.0541E+01  1.7482E+02 -2.3501E+01  1.2004E+00 -1.4017E+01 -4.7667E+00 
125.687508 -2.5160E+01  9.4971E+00  2.0552E+01  1.7415E+02 -2.3695E+01  4.7826E-01 -1.4083E+01 -4.2992E+00 
141.825012 -2.5042E+01  8.7194E+00  2.0521E+01  1.7339E+02 -2.3633E+01  1.4877E+00 -1.4146E+01 -4.4600E+00 
157.962509 -2.5311E+01  1.4967E+01  2.0518E+01  1.7280E+02 -2.3644E+01  1.2237E+00 -1.4255E+01 -5.3362E+00 
174.100021 -2.4947E+01  1.1952E+01  2.0526E+01  1.7195E+02 -2.3659E+01  1.0326E+00 -1.4151E+01 -5.3375E+00 
190.237518 -2.5046E+01  1.6805E+01  2.0520E+01  1.7117E+02 -2.3748E+01  1.2081E+00 -1.4372E+01 -6.0089E+00 
206.375031 -2.4573E+01  1.5928E+01  2.0484E+01  1.7058E+02 -2.3781E+01  4.9988E-01 -1.4150E+01 -7.1397E+00 
222.512527 -2.4825E+01  1.4185E+01  2.0489E+01  1.6979E+02 -2.3444E+01  3.6063E-01 -1.4332E+01 -8.0315E+00 
238.650024 -2.5172E+01  1.6735E+01  2.0513E+01  1.6910E+02 -2.3670E+01  3.1933E+00 -1.4185E+01 -8.5674E+00 
254.787537 -2.5538E+01  2.1315E+01  2.0508E+01  1.6849E+02 -2.4046E+01  5.2310E+00 -1.4265E+01 -8.8284E+00 
270.925018 -2.3941E+01  2.2076E+01  2.0471E+01  1.6742E+02 -2.3571E+01  4.1217E+00 -1.4159E+01 -1.0089E+01 
287.062531 -2.4820E+01  2.2919E+01  2.0477E+01  1.6672E+02 -2.3428E+01  5.3269E+00 -1.4234E+01 -1.0371E+01 
303.200043 -2.8580E+01  5.2104E+01  2.0505E+01  1.6604E+02 -2.3914E+01  3.3082E+00 -1.5805E+01 -1.0886E+01 
319.337524 -3.0242E+01  4.2785E+01  2.0476E+01  1.6524E+02 -2.3900E+01  3.3407E+00 -1.5748E+01 -1.2237E+01 
335.475037 -2.6726E+01  4.1238E+01  2.0466E+01  1.6482E+02 -2.4281E+01  3.2487E+00 -1.5530E+01 -1.1143E+01 
351.612549 -2.8469E+01  5.8796E+01  2.0446E+01  1.6408E+02 -2.3769E+01  2.5137E+00 -1.5979E+01 -1.1648E+01 
367.750061 -2.8096E+01  3.9955E+01  2.0443E+01  1.6324E+02 -2.3702E+01  5.3801E+00 -1.5745E+01 -1.2099E+01 
383.887543 -2.6984E+01  5.1067E+01  2.0416E+01  1.6233E+02 -2.3780E+01  2.8550E+00 -1.5793E+01 -1.4537E+01 
400.025055 -2.6370E+01  4.0976E+01  2.0424E+01  1.6179E+02 -2.3627E+01  4.3015E+00 -1.6222E+01 -1.5124E+01 
416.162567 -2.7804E+01  4.5977E+01  2.0419E+01  1.6098E+02 -2.3784E+01  3.2793E+00 -1.5930E+01 -1.5459E+01 
432.300049 -2.8365E+01  4.4374E+01  2.0364E+01  1.6029E+02 -2.3686E+01  3.2360E+00 -1.5966E+01 -1.5830E+01 
448.437561 -2.8590E+01  3.8238E+01  2.0403E+01  1.5968E+02 -2.3849E+01  4.1877E+00 -1.6077E+01 -1.6675E+01 
464.575073 -2.6682E+01  4.8804E+01  2.0312E+01  1.5884E+02 -2.3709E+01  3.0631E+00 -1.6235E+01 -1.5596E+01 
480.712585 -2.7159E+01  4.0932E+01  2.0327E+01  1.5816E+02 -2.3678E+01  3.2294E+00 -1.6278E+01 -1.6425E+01 
496.850067 -2.6963E+01  5.1617E+01  2.0372E+01  1.5745E+02 -2.3478E+01  3.9961E+00 -1.6550E+01 -1.8017E+01 
512.987610 -2.4895E+01  5.0222E+01  2.0339E+01  1.5697E+02 -2.3709E+01  2.7413E+00 -1.6010E+01 -1.9031E+01 
529.125061 -2.6123E+01  4.4567E+01  2.0311E+01  1.5628E+02 -2.3635E+01  2.0297E+00 -1.6111E+01 -1.9677E+01 
545.262573 -2.6069E+01  4.5695E+01  2.0269E+01  1.5557E+02 -2.3304E+01  2.8465E+00 -1.6409E+01 -1.8100E+01 
561.400085 -2.5273E+01  5.0042E+01  2.0256E+01  1.5472E+02 -2.3644E+01  4.0598E+00 -1.6408E+01 -2.0228E+01 
577.537537 -2.5934E+01  5.3704E+01  2.0261E+01  1.5412E+02 -2.3817E+01  4.1994E+00 -1.6315E+01 -2.2238E+01 
593.674988 -2.6176E+01  4.7049E+01  2.0234E+01  1.5338E+02 -2.3741E+01  2.7042E+00 -1.6304E+01 -2.2137E+01 
609.812500 -2.5236E+01  4.3848E+01  2.0217E+01  1.5255E+02 -2.3373E+01  3.7379E+00 -1.6658E+01 -2.0852E+01 
625.949951 -2.5590E+01  4.2222E+01  2.0217E+01  1.5213E+02 -2.3505E+01  2.6414E+00 -1.6316E+01 -2.3123E+01 
642.087402 -2.4391E+01  4.4951E+01  2.0182E+01  1.5113E+02 -2.3539E+01  4.1624E+00 -1.6589E+01 -2.3915E+01 
658.224915 -2.4939E+01  4.4775E+01  2.0173E+01  1.5048E+02 -2.3658E+01  2.8286E+00 -1.6728E+01 -2.3888E+01 
674.362366 -2.4625E+01  4.6449E+01  2.0140E+01  1.4989E+02 -2.3348E+01  3.8784E+00 -1.7131E+01 -2.3247E+01 
690.499817 -2.3517E+01  4.6037E+01  2.0126E+01  1.4929E+02 -2.3621E+01  4.2420E+00 -1.6829E+01 -2.6532E+01 
706.637329 -2.4274E+01  4.5889E+01  2.0085E+01  1.4862E+02 -2.3306E+01  3.5328E+00 -1.6876E+01 -2.7685E+01 
722.774780 -2.3416E+01  4.4978E+01  2.0077E+01  1.4770E+02 -2.3729E+01  4.7731E+00 -1.6940E+01 -2.8660E+01 
738.912231 -2.4109E+01  5.0117E+01  2.0056E+01  1.4709E+02 -2.3608E+01  2.7956E+00 -1.6800E+01 -2.8023E+01 
755.049744 -2.3451E+01  4.9631E+01  2.0022E+01  1.4645E+02 -2.3385E+01  6.0461E+00 -1.7055E+01 -3.0980E+01 
771.187195 -2.4058E+01  4.6306E+01  2.0032E+01  1.4583E+02 -2.3383E+01  3.5060E+00 -1.7094E+01 -3.1341E+01 
787.324646 -2.3558E+01  4.5555E+01  1.9983E+01  1.4513E+02 -2.3449E+01  3.3504E+00 -1.7146E+01 -3.1354E+01 
803.462158 -2.3392E+01  4.5896E+01  2.0010E+01  1.4459E+02 -2.3515E+01  4.5748E+00 -1.7175E+01 -3.1948E+01 
819.599609 -2.2994E+01  4.5757E+01  1.9936E+01  1.4370E+02 -2.3427E+01  5.5931E+00 -1.7392E+01 -3.2922E+01 
835.737061 -2.3083E+01  4.6428E+01  1.9931E+01  1.4302E+02 -2.3334E+01  3.9139E+00 -1.7460E+01 -3.3498E+01 
851.874573 -2.3534E+01  4.4236E+01  1.9893E+01  1.4254E+02 -2.4231E+01  2.3218E+00 -1.7112E+01 -3.5063E+01 
868.012024 -2.3745E+01  3.9916E+01  1.9873E+01  1.4177E+02 -2.4299E+01  2.3834E-01 -1.7344E+01 -3.5998E+01 
884.149475 -2.3819E+01  4.2755E+01  1.9809E+01  1.4086E+02 -2.3900E+01  1.0513E+00 -1.7465E+01 -3.6293E+01 
900.286987 -2.3242E+01  4.2193E+01  1.9751E+01  1.4054E+02 -2.4154E+01  2.0702E+00 -1.7894E+01 -4.0247E+01 
916.424438 -2.2874E+01  4.0019E+01  1.9772E+01  1.3965E+02 -2.3949E+01  1.2949E+00 -1.7447E+01 -3.8328E+01 
932.561890 -2.3016E+01  4.0491E+01  1.9746E+01  1.3868E+02 -2.3942E+01  4.5056E+00 -1.7636E+01 -3.9726E+01 
948.699402 -2.2547E+01  4.2479E+01  1.9745E+01  1.3843E+02 -2.3471E+01  3.3329E+00 -1.7632E+01 -4.0816E+01 
964.836853 -2.1961E+01  4.2843E+01  1.9716E+01  1.3762E+02 -2.3858E+01  3.7306E+00 -1.7921E+01 -4.0487E+01 
980.974365 -2.2317E+01  4.3743E+01  1.9656E+01  1.3685E+02 -2.3466E+01  4.0131E+00 -1.7779E+01 -4.2324E+01 
997.111816 -2.2093E+01  4.0506E+01  1.9652E+01  1.3667E+02 -2.3581E+01  2.7738E+00 -1.7803E+01 -4.0550E+01 
1013.249268 -2.1980E+01  4.1627E+01  1.9608E+01  1.3602E+02 -2.3476E+01  3.8379E+00 -1.7592E+01 -4.3867E+01 
1029.386719 -2.1883E+01  3.9449E+01  1.9626E+01  1.3511E+02 -2.3531E+01  3.2803E+00 -1.7710E+01 -4.1292E+01 
1045.524170 -2.1886E+01  3.8530E+01  1.9537E+01  1.3439E+02 -2.3145E+01  2.7920E+00 -1.8439E+01 -4.5877E+01 
1061.661743 -2.1953E+01  4.3397E+01  1.9555E+01  1.3393E+02 -2.3257E+01  3.6819E+00 -1.7775E+01 -4.4959E+01 
1077.799194 -2.1387E+01  4.3276E+01  1.9525E+01  1.3304E+02 -2.3373E+01  5.0919E+00 -1.8117E+01 -4.7866E+01 
1093.936646 -2.1507E+01  4.0858E+01  1.9485E+01  1.3249E+02 -2.3187E+01  3.1056E+00 -1.7806E+01 -4.5475E+01 
1110.074097 -2.1426E+01  4.2598E+01  1.9476E+01  1.3197E+02 -2.3298E+01  4.3207E+00 -1.7765E+01 -4.8247E+01 
1126.211548 -2.0897E+01  4.2732E+01  1.9477E+01  1.3109E+02 -2.2908E+01  3.6960E+00 -1.8259E+01 -5.0022E+01 
1142.348999 -2.0971E+01  4.1964E+01  1.9407E+01  1.3075E+02 -2.3286E+01  4.9867E+00 -1.8402E+01 -5.1199E+01 
1158.486572 -2.1597E+01  3.9449E+01  1.9422E+01  1.3036E+02 -2.2888E+01  6.1681E+00 -1.8197E+01 -5.1506E+01 
1174.624023 -2.1443E+01  4.0810E+01  1.9345E+01  1.2957E+02 -2.3193E+01  8.2680E+00 -1.8486E+01 -5.3093E+01 
1190.761475 -2.0966E+01  4.3039E+01  1.9323E+01  1.2893E+02 -2.3161E+01  6.5339E+00 -1.8477E+01 -5.3319E+01 
1206.898926 -2.1273E+01  3.7917E+01  1.9270E+01  1.2815E+02 -2.2921E+01  5.4326E+00 -1.8391E+01 -5.4401E+01 
1223.036377 -2.1207E+01  3.9232E+01  1.9253E+01  1.2786E+02 -2.2945E+01  5.1053E+00 -1.8573E+01 -5.5103E+01 
1239.173828 -2.0632E+01  3.7258E+01  1.9249E+01  1.2691E+02 -2.3487E+01  5.4912E+00 -1.8444E+01 -5.6102E+01 
1255.311401 -2.0622E+01  4.0648E+01  1.9206E+01  1.2635E+02 -2.2807E+01  6.7550E+00 -1.8268E+01 -5.5252E+01 
1271.448853 -2.0364E+01  3.6933E+01  1.9184E+01  1.2594E+02 -2.3174E+01  4.8942E+00 -1.8550E+01 -5.9134E+01 
1287.586304 -2.1019E+01  3.8595E+01  1.9128E+01  1.2508E+02 -2.2980E+01  4.8818E+00 -1.8460E+01 -5.8852E+01 
1303.723755 -2.0565E+01  3.7339E+01  1.9116E+01  1.2475E+02 -2.3223E+01  6.7757E+00 -1.8601E+01 -5.8734E+01 
1319.861206 -2.0258E+01  3.6517E+01  1.9101E+01  1.2401E+02 -2.3093E+01  4.2603E+00 -1.8649E+01 -5.9520E+01 
1335.998779 -2.0387E+01  3.8700E+01  1.9034E+01  1.2356E+02 -2.2842E+01  6.3037E+00 -1.8733E+01 -6.0678E+01 
1352.136230 -2.0482E+01  3.8614E+01  1.8991E+01  1.2276E+02 -2.2822E+01  5.6958E+00 -1.8677E+01 -6.3088E+01 
1368.273682 -2.0015E+01  3.6116E+01  1.8990E+01  1.2204E+02 -2.2746E+01  4.1535E+00 -1.9003E+01 -6.3254E+01 
1384.411133 -1.9825E+01  3.6243E+01  1.8915E+01  1.2151E+02 -2.2924E+01  7.3501E+00 -1.8819E+01 -6.6519E+01 
1400.548584 -1.9989E+01  3.6499E+01  1.8949E+01  1.2103E+02 -2.3084E+01  6.1495E+00 -1.8649E+01 -6.5826E+01 
1416.686035 -2.0171E+01  3.7708E+01  1.8874E+01  1.2056E+02 -2.2703E+01  7.2934E+00 -1.8733E+01 -6.6973E+01 
1432.823608 -2.0087E+01  3.5941E+01  1.8902E+01  1.1979E+02 -2.2683E+01  7.0966E+00 -1.8745E+01 -6.8157E+01 
1448.961060 -1.9732E+01  3.5232E+01  1.8833E+01  1.1908E+02 -2.2895E+01  6.7565E+00 -1.9030E+01 -6.7413E+01 
1465.098511 -2.0012E+01  3.5049E+01  1.8787E+01  1.1864E+02 -2.2872E+01  6.3190E+00 -1.8949E+01 -6.8081E+01 
1481.235962 -1.9793E+01  3.4288E+01  1.8814E+01  1.1818E+02 -2.2625E+01  8.3228E+00 -1.8652E+01 -7.0494E+01 
1497.373413 -1.9784E+01  3.5493E+01  1.8764E+01  1.1761E+02 -2.2678E+01  6.4427E+00 -1.8956E+01 -6.9727E+01 
1513.510864 -1.9722E+01  3.3562E+01  1.8674E+01  1.1723E+02 -2.2597E+01  5.3129E+00 -1.8943E+01 -7.0960E+01 
1529.648438 -2.0004E+01  3.2665E+01  1.8665E+01  1.1640E+02 -2.2848E+01  8.3171E+00 -1.8874E+01 -7.4363E+01 
1545.785889 -1.9762E+01  3.4184E+01  1.8644E+01  1.1596E+02 -2.2678E+01  8.3119E+00 -1.8934E+01 -7.3519E+01 
1561.923340 -1.9694E+01  3.1981E+01  1.8620E+01  1.1518E+02 -2.2819E+01  8.2374E+00 -1.8919E+01 -7.7260E+01 
1578.060791 -1.9562E+01  3.2104E+01  1.8578E+01  1.1483E+02 -2.2739E+01  6.7501E+00 -1.9169E+01 -7.5026E+01 
1594.198242 -1.9392E+01  3.2624E+01  1.8545E+01  1.1386E+02 -2.2439E+01  7.1907E+00 -1.8728E+01 -7.6878E+01 
1610.335693 -1.9684E+01  3.1451E+01  1.8508E+01  1.1372E+02 -2.2837E+01  7.5233E+00 -1.8792E+01 -7.7928E+01 
1626.473267 -1.9690E+01  3.0459E+01  1.8459E+01  1.1299E+02 -2.2601E+01  7.1214E+00 -1.8941E+01 -7.8761E+01 
1642.610718 -1.9907E+01  3.0679E+01  1.8428E+01  1.1251E+02 -2.2529E+01  7.5432E+00 -1.8946E+01 -8.0823E+01 
1658.748169 -2.0054E+01  2.8522E+01  1.8394E+01  1.1203E+02 -2.2481E+01  5.8966E+00 -1.9223E+01 -7.7624E+01 
1674.885620 -1.9662E+01  2.7897E+01  1.8410E+01  1.1147E+02 -2.2535E+01  8.2571E+00 -1.8798E+01 -8.3577E+01 
1691.023071 -1.9546E+01  2.8540E+01  1.8314E+01  1.1065E+02 -2.2508E+01  7.5842E+00 -1.9076E+01 -8.2033E+01 
1707.160522 -1.9426E+01  2.8160E+01  1.8324E+01  1.1041E+02 -2.2651E+01  8.0638E+00 -1.8947E+01 -8.0856E+01 
1723.298096 -1.9434E+01  2.7072E+01  1.8255E+01  1.0952E+02 -2.2654E+01  6.8935E+00 -1.8864E+01 -8.3608E+01 
1739.435547 -1.9399E+01  2.8676E+01  1.8241E+01  1.0909E+02 -2.2546E+01  6.8880E+00 -1.8939E+01 -8.5145E+01 
1755.572998 -1.9275E+01  2.8883E+01  1.8249E+01  1.0870E+02 -2.2551E+01  8.7474E+00 -1.9179E+01 -8.5785E+01 
1771.710449 -1.9682E+01  2.6103E+01  1.8180E+01  1.0842E+02 -2.2504E+01  6.7431E+00 -1.9017E+01 -8.6743E+01 
1787.847900 -1.9299E+01  2.7845E+01  1.8129E+01  1.0789E+02 -2.2526E+01  7.5877E+00 -1.8984E+01 -9.0132E+01 
1803.985352 -1.9359E+01  2.6171E+01  1.8108E+01  1.0695E+02 -2.2304E+01  7.3724E+00 -1.9213E+01 -8.6992E+01 
1820.122925 -1.9844E+01  2.7043E+01  1.8106E+01  1.0634E+02 -2.2385E+01  8.7899E+00 -1.9205E+01 -8.9803E+01 
1836.260376 -1.9758E+01  2.4289E+01  1.8046E+01  1.0609E+02 -2.2521E+01  7.6483E+00 -1.9256E+01 -9.1071E+01 
1852.397827 -1.9322E+01  2.6411E+01  1.8009E+01  1.0548E+02 -2.2326E+01  7.7628E+00 -1.9140E+01 -9.1372E+01 
1868.535278 -1.9423E+01  2.4578E+01  1.8029E+01  1.0499E+02 -2.2328E+01  8.0504E+00 -1.9351E+01 -9.3584E+01 
1884.672729 -1.9501E+01  2.4018E+01  1.7947E+01  1.0432E+02 -2.2219E+01  7.7673E+00 -1.9376E+01 -9.2723E+01 
1900.810181 -1.9165E+01  2.3236E+01  1.7925E+01  1.0384E+02 -2.2196E+01  6.1444E+00 -1.9418E+01 -9.2231E+01 
1916.947754 -1.9466E+01  2.3206E+01  1.7887E+01  1.0336E+02 -2.2335E+01  6.1197E+00 -1.9357E+01 -9.5379E+01 
1933.085205 -1.9610E+01  2.0192E+01  1.7895E+01  1.0258E+02 -2.2379E+01  8.1447E+00 -1.9577E+01 -9.4061E+01 
1949.222656 -2.0014E+01  2.4758E+01  1.7851E+01  1.0203E+02 -2.2453E+01  7.2203E+00 -1.9000E+01 -9.7305E+01 
1965.360107 -1.9616E+01  2.0679E+01  1.7770E+01  1.0175E+02 -2.1947E+01  9.0576E+00 -1.9546E+01 -9.8316E+01 
1981.497559 -1.9675E+01  2.1758E+01  1.7748E+01  1.0115E+02 -2.2331E+01  8.1022E+00 -1.9804E+01 -9.8638E+01 
1997.635132 -1.9750E+01  2.3211E+01  1.7712E+01  1.0048E+02 -2.2089E+01  7.1602E+00 -1.9949E+01 -1.0142E+02 
2013.772583 -1.4759E+01  2.0823E+01  1.7541E+01  1.0054E+02 -2.2087E+01  6.4169E+00 -1.5014E+01 -8.6682E+01 
2029.910034 -1.5274E+01  2.0489E+01  1.7566E+01  1.0033E+02 -2.2190E+01  6.5333E+00 -1.5207E+01 -8.8495E+01 
2046.047485 -1.5042E+01  2.1842E+01  1.7520E+01  9.9713E+01 -2.2249E+01  8.4632E+00 -1.5130E+01 -8.6970E+01 
2062.185059 -1.5185E+01  1.9734E+01  1.7466E+01  9.9250E+01 -2.2133E+01  9.8495E+00 -1.5078E+01 -8.8529E+01 
2078.322510 -1.4983E+01  1.9429E+01  1.7487E+01  9.8473E+01 -2.2217E+01  7.0371E+00 -1.5278E+01 -8.9660E+01 
2094.459961 -1.5133E+01  1.8770E+01  1.7416E+01  9.8227E+01 -2.2086E+01  8.2318E+00 -1.5046E+01 -8.9988E+01 
2110.597412 -1.5609E+01  1.9229E+01  1.7424E+01  9.7528E+01 -2.2190E+01  7.0598E+00 -1.5434E+01 -9.1522E+01 
2126.734863 -1.5269E+01  1.8611E+01  1.7379E+01  9.7245E+01 -2.2006E+01  7.8388E+00 -1.5364E+01 -9.1705E+01 
2142.872314 -1.5202E+01  1.9224E+01  1.7368E+01  9.6634E+01 -2.2219E+01  7.4792E+00 -1.5386E+01 -9.0868E+01 
2159.009766 -1.5237E+01  1.7481E+01  1.7307E+01  9.6195E+01 -2.2052E+01  8.8735E+00 -1.5424E+01 -9.4460E+01 
2175.147217 -1.5566E+01  1.7917E+01  1.7214E+01  9.5768E+01 -2.1901E+01  8.7387E+00 -1.5353E+01 -9.2930E+01 
2191.284668 -1.5397E+01  1.6652E+01  1.7219E+01  9.5116E+01 -2.2082E+01  7.9419E+00 -1.5199E+01 -9.5516E+01 
2207.422119 -1.5750E+01  1.7645E+01  1.7195E+01  9.4528E+01 -2.1924E+01  8.1058E+00 -1.5681E+01 -9.5816E+01 
2223.559570 -1.5629E+01  1.7551E+01  1.7160E+01  9.4402E+01 -2.1984E+01  6.4791E+00 -1.5571E+01 -9.4041E+01 
2239.697266 -1.5909E+01  1.6838E+01  1.7120E+01  9.3652E+01 -2.2152E+01  8.3823E+00 -1.5605E+01 -9.6450E+01 
2255.834717 -1.5545E+01  1.5873E+01  1.7137E+01  9.3232E+01 -2.1661E+01  7.1158E+00 -1.5687E+01 -9.6176E+01 
2271.972168 -1.5603E+01  1.5065E+01  1.7095E+01  9.2563E+01 -2.1708E+01  8.2528E+00 -1.5748E+01 -9.7356E+01 
2288.109619 -1.5995E+01  1.6833E+01  1.7037E+01  9.2334E+01 -2.2033E+01  5.9103E+00 -1.5808E+01 -9.8407E+01 
2304.247070 -1.5952E+01  1.6067E+01  1.7035E+01  9.1458E+01 -2.1885E+01  7.3897E+00 -1.6049E+01 -9.9606E+01 
2320.384521 -1.5807E+01  1.5069E+01  1.6999E+01  9.1263E+01 -2.1696E+01  8.2950E+00 -1.5735E+01 -1.0129E+02 
2336.521973 -1.5570E+01  1.4532E+01  1.6980E+01  9.0505E+01 -2.1691E+01  7.8799E+00 -1.5950E+01 -1.0190E+02 
2352.659424 -1.5679E+01  1.3256E+01  1.6928E+01  9.0291E+01 -2.1682E+01  7.2105E+00 -1.6014E+01 -1.0221E+02 
2368.796875 -1.5987E+01  1.3297E+01  1.6913E+01  8.9846E+01 -2.1591E+01  6.6512E+00 -1.5961E+01 -1.0196E+02 
2384.934326 -1.6029E+01  1.3027E+01  1.6849E+01  8.9443E+01 -2.1618E+01  7.8054E+00 -1.6148E+01 -1.0272E+02 
2401.071777 -1.6032E+01  1.4299E+01  1.6828E+01  8.8897E+01 -2.1782E+01  8.5513E+00 -1.6033E+01 -1.0202E+02 
2417.209229 -1.6257E+01  1.2832E+01  1.6927E+01  9.0494E+01 -2.2535E+01  1.5014E+00 -1.6335E+01 -1.0349E+02 
2433.346924 -1.6166E+01  1.0732E+01  1.6924E+01  9.0462E+01 -2.2234E+01  6.1488E+00 -1.6396E+01 -1.0065E+02 
2449.484375 -1.6109E+01  1.2774E+01  1.6859E+01  8.9448E+01 -2.2054E+01  4.5650E+00 -1.6319E+01 -1.0136E+02 
2465.621826 -1.6862E+01  1.0014E+01  1.6852E+01  8.9313E+01 -2.2594E+01  1.7180E+00 -1.6349E+01 -1.0246E+02 
2481.759277 -1.6405E+01  1.0516E+01  1.6805E+01  8.8329E+01 -2.1843E+01  3.2202E+00 -1.6339E+01 -1.0462E+02 
2497.896729 -1.6297E+01  9.3078E+00  1.6752E+01  8.8180E+01 -2.1899E+01  2.9523E+00 -1.6710E+01 -1.0573E+02 
2514.034180 -1.6533E+01  1.2039E+01  1.6744E+01  8.7840E+01 -2.2061E+01  4.8354E+00 -1.6291E+01 -1.0589E+02 
2530.171631 -1.6055E+01  8.5859E+00  1.6720E+01  8.7324E+01 -2.1845E+01  1.9141E+00 -1.6419E+01 -1.0799E+02 
2546.309082 -1.6632E+01  8.9683E+00  1.6714E+01  8.6581E+01 -2.1656E+01  3.6680E+00 -1.6747E+01 -1.0473E+02 
2562.446533 -1.6534E+01  1.0497E+01  1.6666E+01  8.6375E+01 -2.1725E+01  3.9430E+00 -1.6594E+01 -1.1040E+02 
2578.583984 -1.6588E+01  1.0462E+01  1.6623E+01  8.5805E+01 -2.1732E+01  5.3891E+00 -1.6326E+01 -1.0727E+02 
2594.721436 -1.6854E+01  1.0218E+01  1.6598E+01  8.5245E+01 -2.1679E+01  4.3291E+00 -1.6682E+01 -1.0931E+02 
2610.858887 -1.6433E+01  8.3497E+00  1.6590E+01  8.4846E+01 -2.1602E+01  6.1941E+00 -1.6860E+01 -1.0716E+02 
2626.996582 -1.6814E+01  7.8516E+00  1.6548E+01  8.4225E+01 -2.1743E+01  2.6723E+00 -1.7139E+01 -1.0920E+02 
2643.134033 -1.6711E+01  7.4265E+00  1.6505E+01  8.4008E+01 -2.1451E+01  4.8778E+00 -1.6630E+01 -1.1033E+02 
2659.271484 -1.6447E+01  6.0422E+00  1.6467E+01  8.3608E+01 -2.1271E+01  4.4270E+00 -1.7123E+01 -1.0899E+02 
2675.408936 -1.6675E+01  7.9214E+00  1.6392E+01  8.3037E+01 -2.1299E+01  3.1211E+00 -1.7454E+01 -1.0932E+02 
2691.546387 -1.6553E+01  5.3954E+00  1.6431E+01  8.2787E+01 -2.1188E+01  3.7467E+00 -1.7192E+01 -1.1165E+02 
2707.683838 -1.6866E+01  6.5018E+00  1.6393E+01  8.2315E+01 -2.1424E+01  4.8207E+00 -1.6909E+01 -1.1143E+02 
2723.821289 -1.6714E+01  7.9273E+00  1.6353E+01  8.1568E+01 -2.1444E+01  5.2339E+00 -1.7387E+01 -1.1192E+02 
2739.958740 -1.6479E+01  7.3616E+00  1.6318E+01  8.0936E+01 -2.0904E+01  4.1001E+00 -1.7109E+01 -1.1338E+02 
2756.096191 -1.7007E+01  5.4934E+00  1.6315E+01  8.0669E+01 -2.1117E+01  4.7079E+00 -1.7792E+01 -1.1430E+02 
2772.233643 -1.7173E+01  6.0788E+00  1.6283E+01  8.0287E+01 -2.0958E+01  1.7549E+00 -1.7614E+01 -1.1516E+02 
2788.371094 -1.6985E+01  5.5073E+00  1.6271E+01  7.9795E+01 -2.1239E+01  4.7088E+00 -1.7513E+01 -1.1689E+02 
2804.508789 -1.6860E+01  5.9578E+00  1.6200E+01  7.9650E+01 -2.1082E+01  4.8035E+00 -1.7757E+01 -1.1429E+02 
2820.646240 -1.6803E+01  7.5735E+00  1.6200E+01  7.8950E+01 -2.1134E+01  4.9998E+00 -1.7570E+01 -1.1866E+02 
2836.783691 -1.6761E+01  6.6046E+00  1.6151E+01  7.8537E+01 -2.1223E+01  5.1244E+00 -1.7799E+01 -1.1644E+02 
2852.921143 -1.6804E+01  5.9463E+00  1.6074E+01  7.8293E+01 -2.0559E+01  4.6322E+00 -1.8216E+01 -1.1828E+02 
2869.058594 -1.7490E+01  5.0781E+00  1.6078E+01  7.7894E+01 -2.0967E+01  5.4145E+00 -1.8078E+01 -1.1843E+02 
2885.196045 -1.7202E+01  7.5632E+00  1.6059E+01  7.7217E+01 -2.1033E+01  6.3763E+00 -1.8049E+01 -1.2075E+02 
2901.333496 -1.6729E+01  6.2272E+00  1.6055E+01  7.6917E+01 -2.0883E+01  5.1703E+00 -1.7812E+01 -1.1857E+02 
2917.470947 -1.7195E+01  4.8764E+00  1.6019E+01  7.6405E+01 -2.0627E+01  5.9048E+00 -1.8365E+01 -1.1921E+02 
