! WJ Communications, Inc.
! AG604-89 InGaP HBT Gain Block
!
! The data is for the unmatched device in a 50 Ohm fixture, de-embedded to the device leads.
! Device bias: +5.16 V @ 75 mA -> Note a bias dropping resistor must be used for proper operation.
! Data From 60489b.s2p
! 
# MHZ S DB R 50
45.000000 -1.9294E+01 -1.7927E+02  2.3050E+01  1.7659E+02 -2.4608E+01  2.7929E+00 -3.3937E+01 -7.8152E+01 
61.137501 -1.9877E+01  1.7906E+02  2.3010E+01  1.7526E+02 -2.4988E+01  1.9605E+00 -3.1836E+01 -1.0150E+02 
77.275002 -1.9854E+01  1.7633E+02  2.3013E+01  1.7416E+02 -2.5282E+01  1.7869E+00 -3.1384E+01 -8.9868E+01 
93.412498 -1.9833E+01  1.7429E+02  2.2973E+01  1.7306E+02 -2.5032E+01  1.9274E+00 -3.0000E+01 -9.4452E+01 
109.550003 -2.0173E+01  1.7237E+02  2.2950E+01  1.7164E+02 -2.5265E+01  1.7333E+00 -2.8700E+01 -9.8566E+01 
125.687508 -2.0015E+01  1.7109E+02  2.2956E+01  1.7050E+02 -2.5146E+01  1.0072E-01 -2.8495E+01 -9.6284E+01 
141.825012 -2.0147E+01  1.6990E+02  2.2928E+01  1.6927E+02 -2.5068E+01 -1.1712E+00 -2.7799E+01 -9.9776E+01 
157.962509 -1.9883E+01  1.6723E+02  2.2915E+01  1.6835E+02 -2.5164E+01 -3.6829E-01 -2.6744E+01 -1.0389E+02 
174.100021 -2.0265E+01  1.6762E+02  2.2895E+01  1.6702E+02 -2.5351E+01 -1.3315E+00 -2.5792E+01 -1.0410E+02 
190.237518 -1.9981E+01  1.6716E+02  2.2886E+01  1.6595E+02 -2.5120E+01 -2.2685E+00 -2.5187E+01 -1.0848E+02 
206.375031 -1.9990E+01  1.6266E+02  2.2856E+01  1.6478E+02 -2.5124E+01 -9.0680E-01 -2.4404E+01 -1.0403E+02 
222.512527 -2.0084E+01  1.6190E+02  2.2823E+01  1.6344E+02 -2.5497E+01 -3.4976E-01 -2.3486E+01 -1.0910E+02 
238.650024 -1.9782E+01  1.6314E+02  2.2841E+01  1.6235E+02 -2.5216E+01 -6.9131E-01 -2.2771E+01 -1.0822E+02 
254.787537 -1.9422E+01  1.6724E+02  2.2792E+01  1.6154E+02 -2.5225E+01  1.9887E+00 -2.2884E+01 -1.1003E+02 
270.925018 -2.0185E+01  1.6326E+02  2.2800E+01  1.5996E+02 -2.5434E+01  1.3342E+00 -2.1964E+01 -1.0780E+02 
287.062531 -2.0047E+01  1.6166E+02  2.2784E+01  1.5869E+02 -2.5121E+01  3.1881E+00 -2.1107E+01 -1.1162E+02 
303.200043 -1.7820E+01  1.6093E+02  2.2708E+01  1.5768E+02 -2.5354E+01  5.9103E-01 -2.0055E+01 -1.3116E+02 
319.337524 -1.7831E+01  1.6511E+02  2.2673E+01  1.5657E+02 -2.5293E+01 -2.2114E+00 -1.9713E+01 -1.3155E+02 
335.475037 -1.8428E+01  1.5705E+02  2.2666E+01  1.5567E+02 -2.5642E+01  1.7119E+00 -1.9504E+01 -1.3038E+02 
351.612549 -1.7313E+01  1.6001E+02  2.2610E+01  1.5431E+02 -2.5539E+01  9.6566E-01 -1.9066E+01 -1.3353E+02 
367.750061 -1.8471E+01  1.6001E+02  2.2599E+01  1.5321E+02 -2.5643E+01  4.1691E-03 -1.8859E+01 -1.3288E+02 
383.887543 -1.7896E+01  1.5562E+02  2.2525E+01  1.5193E+02 -2.5228E+01 -1.1213E+00 -1.8356E+01 -1.3219E+02 
400.025055 -1.8740E+01  1.5462E+02  2.2534E+01  1.5094E+02 -2.5256E+01 -2.1821E+00 -1.7834E+01 -1.3546E+02 
416.162567 -1.8153E+01  1.5711E+02  2.2487E+01  1.4973E+02 -2.5332E+01 -6.8240E-01 -1.7693E+01 -1.3323E+02 
432.300049 -1.8197E+01  1.5707E+02  2.2438E+01  1.4863E+02 -2.5231E+01  5.2483E-01 -1.7527E+01 -1.3443E+02 
448.437561 -1.8013E+01  1.5686E+02  2.2449E+01  1.4752E+02 -2.5340E+01 -2.7819E+00 -1.7148E+01 -1.3561E+02 
464.575073 -1.8051E+01  1.5142E+02  2.2363E+01  1.4643E+02 -2.5414E+01 -2.5178E+00 -1.7029E+01 -1.3703E+02 
480.712585 -1.8351E+01  1.5332E+02  2.2371E+01  1.4530E+02 -2.5305E+01 -3.1861E+00 -1.6833E+01 -1.3790E+02 
496.850067 -1.7903E+01  1.5175E+02  2.2338E+01  1.4429E+02 -2.4913E+01  1.7118E-01 -1.6377E+01 -1.3897E+02 
512.987610 -1.8111E+01  1.4570E+02  2.2298E+01  1.4340E+02 -2.5418E+01 -3.4790E+00 -1.6277E+01 -1.3579E+02 
529.125061 -1.8418E+01  1.5019E+02  2.2266E+01  1.4224E+02 -2.5319E+01 -2.7289E+00 -1.5885E+01 -1.3839E+02 
545.262573 -1.8383E+01  1.5045E+02  2.2204E+01  1.4105E+02 -2.5345E+01 -2.7205E+00 -1.6051E+01 -1.4074E+02 
561.400085 -1.8160E+01  1.4570E+02  2.2157E+01  1.3999E+02 -2.5382E+01 -1.9073E+00 -1.5697E+01 -1.4093E+02 
577.537537 -1.8289E+01  1.4878E+02  2.2126E+01  1.3899E+02 -2.5263E+01 -2.1958E+00 -1.5278E+01 -1.4047E+02 
593.674988 -1.8473E+01  1.4701E+02  2.2081E+01  1.3793E+02 -2.5237E+01 -2.3773E+00 -1.5280E+01 -1.4166E+02 
609.812500 -1.8830E+01  1.4492E+02  2.2069E+01  1.3694E+02 -2.5207E+01 -2.4328E+00 -1.5055E+01 -1.4414E+02 
625.949951 -1.8782E+01  1.4669E+02  2.1999E+01  1.3594E+02 -2.5284E+01 -3.7195E+00 -1.4857E+01 -1.4238E+02 
642.087402 -1.8828E+01  1.4250E+02  2.1974E+01  1.3488E+02 -2.4847E+01 -4.0856E+00 -1.4492E+01 -1.4355E+02 
658.224915 -1.8663E+01  1.4294E+02  2.1948E+01  1.3365E+02 -2.5208E+01 -3.1206E+00 -1.4513E+01 -1.4481E+02 
674.362366 -1.8475E+01  1.4253E+02  2.1870E+01  1.3273E+02 -2.5279E+01 -2.3507E+00 -1.4432E+01 -1.4744E+02 
690.499817 -1.8722E+01  1.3882E+02  2.1831E+01  1.3198E+02 -2.5100E+01 -2.3656E+00 -1.3925E+01 -1.4558E+02 
706.637329 -1.8728E+01  1.4225E+02  2.1782E+01  1.3092E+02 -2.5390E+01 -2.2649E+00 -1.4041E+01 -1.4674E+02 
722.774780 -1.8969E+01  1.3993E+02  2.1726E+01  1.2981E+02 -2.5320E+01 -2.3133E+00 -1.3755E+01 -1.4700E+02 
738.912231 -1.8489E+01  1.3943E+02  2.1683E+01  1.2870E+02 -2.5149E+01 -2.6460E+00 -1.3740E+01 -1.4804E+02 
755.049744 -1.8772E+01  1.3795E+02  2.1651E+01  1.2773E+02 -2.5064E+01 -1.8228E+00 -1.3381E+01 -1.4824E+02 
771.187195 -1.8978E+01  1.4004E+02  2.1591E+01  1.2687E+02 -2.5155E+01 -4.8326E+00 -1.3286E+01 -1.4953E+02 
787.324646 -1.9393E+01  1.3773E+02  2.1565E+01  1.2589E+02 -2.5297E+01 -3.5638E+00 -1.3099E+01 -1.5036E+02 
803.462158 -1.9286E+01  1.3570E+02  2.1534E+01  1.2489E+02 -2.5046E+01 -4.1299E+00 -1.3073E+01 -1.5084E+02 
819.599609 -1.9333E+01  1.3486E+02  2.1446E+01  1.2369E+02 -2.5096E+01 -3.8307E+00 -1.2837E+01 -1.5159E+02 
835.737061 -1.9520E+01  1.3473E+02  2.1432E+01  1.2296E+02 -2.5236E+01 -5.3972E+00 -1.2748E+01 -1.5283E+02 
851.874573 -2.0211E+01  1.3062E+02  2.1347E+01  1.2208E+02 -2.5567E+01 -4.2358E+00 -1.2506E+01 -1.5141E+02 
868.012024 -2.0282E+01  1.3056E+02  2.1283E+01  1.2086E+02 -2.6081E+01 -3.9914E+00 -1.2337E+01 -1.5285E+02 
884.149475 -2.0162E+01  1.3117E+02  2.1206E+01  1.1968E+02 -2.5633E+01 -5.7141E+00 -1.2497E+01 -1.5446E+02 
900.286987 -2.0381E+01  1.2966E+02  2.1160E+01  1.1911E+02 -2.5394E+01 -5.6174E+00 -1.2249E+01 -1.5505E+02 
916.424438 -2.0553E+01  1.2767E+02  2.1153E+01  1.1788E+02 -2.5411E+01 -5.9603E+00 -1.2265E+01 -1.5547E+02 
932.561890 -2.0619E+01  1.2652E+02  2.1080E+01  1.1692E+02 -2.5304E+01 -4.6361E+00 -1.2149E+01 -1.5693E+02 
948.699402 -2.0402E+01  1.2608E+02  2.1051E+01  1.1621E+02 -2.5240E+01 -7.4506E+00 -1.1917E+01 -1.5609E+02 
964.836853 -2.0366E+01  1.2478E+02  2.0972E+01  1.1538E+02 -2.5342E+01 -7.8122E+00 -1.2070E+01 -1.5727E+02 
980.974365 -2.0508E+01  1.2841E+02  2.0890E+01  1.1404E+02 -2.5463E+01 -6.7220E+00 -1.1885E+01 -1.5818E+02 
997.111816 -2.0370E+01  1.2605E+02  2.0845E+01  1.1354E+02 -2.5058E+01 -5.9839E+00 -1.1894E+01 -1.5882E+02 
1013.249268 -2.0754E+01  1.2560E+02  2.0807E+01  1.1275E+02 -2.5171E+01 -7.1557E+00 -1.1680E+01 -1.5852E+02 
1029.386719 -2.0743E+01  1.2558E+02  2.0786E+01  1.1154E+02 -2.5198E+01 -8.4905E+00 -1.1803E+01 -1.5986E+02 
1045.524170 -2.0927E+01  1.2348E+02  2.0693E+01  1.1074E+02 -2.5332E+01 -6.0503E+00 -1.1467E+01 -1.6173E+02 
1061.661743 -2.0529E+01  1.2296E+02  2.0653E+01  1.1001E+02 -2.5009E+01 -7.2505E+00 -1.1636E+01 -1.6011E+02 
1077.799194 -2.0842E+01  1.2195E+02  2.0625E+01  1.0885E+02 -2.5188E+01 -7.7869E+00 -1.1401E+01 -1.6102E+02 
1093.936646 -2.1029E+01  1.2233E+02  2.0535E+01  1.0798E+02 -2.4857E+01 -4.3473E+00 -1.1404E+01 -1.6131E+02 
1110.074097 -2.0829E+01  1.2220E+02  2.0526E+01  1.0751E+02 -2.4878E+01 -8.2395E+00 -1.1171E+01 -1.6147E+02 
1126.211548 -2.1118E+01  1.2132E+02  2.0475E+01  1.0639E+02 -2.5026E+01 -8.9278E+00 -1.1190E+01 -1.6266E+02 
1142.348999 -2.1236E+01  1.1950E+02  2.0385E+01  1.0565E+02 -2.4899E+01 -6.8529E+00 -1.1054E+01 -1.6363E+02 
1158.486572 -2.1695E+01  1.2475E+02  2.0377E+01  1.0495E+02 -2.4896E+01 -7.3132E+00 -1.1035E+01 -1.6378E+02 
1174.624023 -2.1496E+01  1.2272E+02  2.0274E+01  1.0418E+02 -2.4884E+01 -5.1538E+00 -1.0956E+01 -1.6450E+02 
1190.761475 -2.1192E+01  1.1933E+02  2.0237E+01  1.0295E+02 -2.4885E+01 -5.8475E+00 -1.0963E+01 -1.6572E+02 
1206.898926 -2.2015E+01  1.2373E+02  2.0161E+01  1.0212E+02 -2.4998E+01 -7.5802E+00 -1.0979E+01 -1.6587E+02 
1223.036377 -2.1890E+01  1.2046E+02  2.0100E+01  1.0138E+02 -2.4717E+01 -8.1290E+00 -1.0985E+01 -1.6598E+02 
1239.173828 -2.2549E+01  1.1882E+02  2.0105E+01  1.0055E+02 -2.5035E+01 -6.1583E+00 -1.0890E+01 -1.6690E+02 
1255.311401 -2.2306E+01  1.1828E+02  2.0015E+01  9.9772E+01 -2.4578E+01 -6.1950E+00 -1.0904E+01 -1.6691E+02 
1271.448853 -2.2699E+01  1.1548E+02  1.9995E+01  9.8935E+01 -2.4558E+01 -7.1213E+00 -1.0796E+01 -1.6691E+02 
1287.586304 -2.2388E+01  1.1746E+02  1.9891E+01  9.7943E+01 -2.4640E+01 -5.3510E+00 -1.0701E+01 -1.6854E+02 
1303.723755 -2.3363E+01  1.1578E+02  1.9869E+01  9.7491E+01 -2.4799E+01 -5.3952E+00 -1.0751E+01 -1.6874E+02 
1319.861206 -2.3216E+01  1.1545E+02  1.9837E+01  9.6737E+01 -2.4679E+01 -5.2741E+00 -1.0577E+01 -1.6958E+02 
1335.998779 -2.3012E+01  1.1662E+02  1.9746E+01  9.5855E+01 -2.4830E+01 -4.5783E+00 -1.0639E+01 -1.7061E+02 
1352.136230 -2.3431E+01  1.1583E+02  1.9694E+01  9.4956E+01 -2.4599E+01 -5.1974E+00 -1.0527E+01 -1.7035E+02 
1368.273682 -2.3731E+01  1.1333E+02  1.9659E+01  9.4063E+01 -2.4458E+01 -5.7480E+00 -1.0501E+01 -1.7125E+02 
1384.411133 -2.3958E+01  1.1013E+02  1.9555E+01  9.3365E+01 -2.4250E+01 -6.2961E+00 -1.0595E+01 -1.7183E+02 
1400.548584 -2.4209E+01  1.1040E+02  1.9577E+01  9.2759E+01 -2.4716E+01 -7.4352E+00 -1.0494E+01 -1.7164E+02 
1416.686035 -2.4294E+01  1.1460E+02  1.9492E+01  9.2059E+01 -2.4453E+01 -8.6955E+00 -1.0430E+01 -1.7189E+02 
1432.823608 -2.4892E+01  1.1470E+02  1.9462E+01  9.1075E+01 -2.4782E+01 -7.5664E+00 -1.0372E+01 -1.7291E+02 
1448.961060 -2.4711E+01  1.0880E+02  1.9409E+01  9.0332E+01 -2.4433E+01 -4.6765E+00 -1.0262E+01 -1.7366E+02 
1465.098511 -2.4956E+01  1.1036E+02  1.9334E+01  8.9580E+01 -2.4683E+01 -6.0935E+00 -1.0303E+01 -1.7390E+02 
1481.235962 -2.5134E+01  1.1282E+02  1.9343E+01  8.8905E+01 -2.4566E+01 -5.9278E+00 -1.0268E+01 -1.7328E+02 
1497.373413 -2.5618E+01  1.0875E+02  1.9238E+01  8.8201E+01 -2.4224E+01 -4.9326E+00 -1.0286E+01 -1.7488E+02 
1513.510864 -2.6182E+01  1.0813E+02  1.9164E+01  8.7486E+01 -2.4460E+01 -7.7633E+00 -1.0212E+01 -1.7495E+02 
1529.648438 -2.6714E+01  1.0823E+02  1.9136E+01  8.6617E+01 -2.4505E+01 -5.9860E+00 -1.0183E+01 -1.7558E+02 
1545.785889 -2.7142E+01  1.0674E+02  1.9077E+01  8.5914E+01 -2.4242E+01 -8.6940E+00 -1.0264E+01 -1.7540E+02 
1561.923340 -2.6764E+01  1.0435E+02  1.9046E+01  8.5032E+01 -2.4528E+01 -6.5093E+00 -1.0142E+01 -1.7668E+02 
1578.060791 -2.7195E+01  1.0530E+02  1.8991E+01  8.4464E+01 -2.4292E+01 -7.0590E+00 -1.0188E+01 -1.7746E+02 
1594.198242 -2.7239E+01  1.0324E+02  1.8929E+01  8.3616E+01 -2.4443E+01 -7.9594E+00 -1.0022E+01 -1.7788E+02 
1610.335693 -2.7553E+01  1.0875E+02  1.8888E+01  8.2866E+01 -2.4468E+01 -6.6115E+00 -1.0052E+01 -1.7829E+02 
1626.473267 -2.8475E+01  1.0192E+02  1.8827E+01  8.2079E+01 -2.4173E+01 -8.3832E+00 -1.0069E+01 -1.7836E+02 
1642.610718 -2.8916E+01  1.1053E+02  1.8765E+01  8.1320E+01 -2.4247E+01 -1.0179E+01 -1.0027E+01 -1.7871E+02 
1658.748169 -2.9814E+01  1.0648E+02  1.8708E+01  8.0724E+01 -2.4087E+01 -9.2547E+00 -1.0266E+01 -1.8000E+02 
1674.885620 -3.0763E+01  1.0558E+02  1.8690E+01  7.9724E+01 -2.4318E+01 -8.5641E+00 -9.9108E+00 -1.7935E+02 
1691.023071 -2.9814E+01  9.7003E+01  1.8595E+01  7.9225E+01 -2.4632E+01 -6.8997E+00 -9.9772E+00  1.7854E+02 
1707.160522 -3.0481E+01  9.6268E+01  1.8589E+01  7.8439E+01 -2.3901E+01 -8.4831E+00 -1.0074E+01 -1.7999E+02 
1723.298096 -3.1610E+01  9.0732E+01  1.8517E+01  7.7605E+01 -2.4100E+01 -9.4107E+00 -9.9925E+00  1.7916E+02 
1739.435547 -3.1553E+01  9.5961E+01  1.8488E+01  7.7143E+01 -2.4065E+01 -7.6187E+00 -1.0015E+01  1.7888E+02 
1755.572998 -3.1561E+01  8.5448E+01  1.8447E+01  7.6329E+01 -2.3888E+01 -6.4905E+00 -1.0111E+01  1.7761E+02 
1771.710449 -3.3051E+01  8.8745E+01  1.8390E+01  7.5667E+01 -2.4124E+01 -9.2344E+00 -9.8933E+00  1.7754E+02 
1787.847900 -3.3568E+01  8.9987E+01  1.8323E+01  7.5245E+01 -2.4046E+01 -9.5479E+00 -9.8394E+00  1.7769E+02 
1803.985352 -3.4165E+01  8.7596E+01  1.8272E+01  7.4239E+01 -2.4308E+01 -9.8284E+00 -9.9314E+00  1.7647E+02 
1820.122925 -3.5503E+01  9.3643E+01  1.8244E+01  7.3357E+01 -2.4233E+01 -8.4690E+00 -9.8289E+00  1.7570E+02 
1836.260376 -3.6430E+01  7.6020E+01  1.8177E+01  7.2951E+01 -2.3708E+01 -9.0884E+00 -9.7877E+00  1.7538E+02 
1852.397827 -3.6829E+01  8.4155E+01  1.8130E+01  7.2391E+01 -2.3935E+01 -8.0474E+00 -9.9337E+00  1.7514E+02 
1868.535278 -3.8252E+01  7.7173E+01  1.8102E+01  7.1665E+01 -2.4197E+01 -1.0206E+01 -9.7378E+00  1.7399E+02 
1884.672729 -3.7693E+01  8.1866E+01  1.8027E+01  7.0693E+01 -2.3851E+01 -1.0817E+01 -9.9404E+00  1.7398E+02 
1900.810181 -3.8191E+01  5.5868E+01  1.7977E+01  7.0027E+01 -2.4003E+01 -8.3197E+00 -9.9422E+00  1.7322E+02 
1916.947754 -3.9961E+01  5.5207E+01  1.7964E+01  6.9155E+01 -2.3596E+01 -1.0350E+01 -9.8289E+00  1.7267E+02 
1933.085205 -3.9382E+01  3.0972E+01  1.7926E+01  6.8408E+01 -2.3739E+01 -9.3838E+00 -9.8386E+00  1.7185E+02 
1949.222656 -4.0160E+01  6.5824E+01  1.7875E+01  6.7667E+01 -2.3886E+01 -1.0350E+01 -9.8757E+00  1.7258E+02 
1965.360107 -4.1651E+01  6.3135E+00  1.7764E+01  6.7248E+01 -2.3537E+01 -8.6475E+00 -9.8117E+00  1.7082E+02 
1981.497559 -4.2042E+01  1.0794E+01  1.7748E+01  6.6542E+01 -2.3679E+01 -1.0983E+01 -9.7084E+00  1.7028E+02 
1997.635132 -4.4521E+01  1.2676E+01  1.7683E+01  6.5812E+01 -2.3863E+01 -1.1601E+01 -9.7375E+00  1.6954E+02 
2013.772583 -2.4532E+01  1.9520E+01  1.7726E+01  6.5936E+01 -2.3359E+01 -1.1095E+01 -9.9242E+00 -1.7548E+02 
2029.910034 -2.6049E+01  1.7003E+01  1.7704E+01  6.5308E+01 -2.3741E+01 -1.0109E+01 -9.9202E+00 -1.7711E+02 
2046.047485 -2.5758E+01  1.6808E+01  1.7641E+01  6.4712E+01 -2.3408E+01 -9.8197E+00 -1.0052E+01 -1.7680E+02 
2062.185059 -2.5701E+01  1.8705E+01  1.7605E+01  6.4023E+01 -2.3867E+01 -1.0772E+01 -9.9575E+00 -1.7814E+02 
2078.322510 -2.5662E+01  1.0200E+01  1.7613E+01  6.3347E+01 -2.3383E+01 -9.2162E+00 -9.8312E+00 -1.7923E+02 
2094.459961 -2.6374E+01  1.2293E+01  1.7525E+01  6.2851E+01 -2.4063E+01 -1.1980E+01 -9.9602E+00 -1.7934E+02 
2110.597412 -2.6711E+01  1.3092E+01  1.7477E+01  6.1714E+01 -2.3672E+01 -1.1608E+01 -9.9515E+00  1.7935E+02 
2126.734863 -2.5771E+01  9.6149E+00  1.7461E+01  6.1619E+01 -2.3553E+01 -1.1658E+01 -9.9488E+00  1.7947E+02 
2142.872314 -2.5945E+01  7.9183E+00  1.7400E+01  6.0913E+01 -2.3402E+01 -1.2380E+01 -1.0007E+01  1.7847E+02 
2159.009766 -2.5527E+01  2.2738E+00  1.7364E+01  5.9851E+01 -2.3202E+01 -1.1465E+01 -9.8604E+00  1.7790E+02 
2175.147217 -2.6660E+01  5.4973E+00  1.7272E+01  5.9042E+01 -2.3269E+01 -1.1234E+01 -9.9694E+00  1.7722E+02 
2191.284668 -2.6547E+01  6.0072E+00  1.7255E+01  5.8502E+01 -2.3672E+01 -1.2693E+01 -9.8502E+00  1.7657E+02 
2207.422119 -2.7021E+01  5.1348E+00  1.7227E+01  5.7617E+01 -2.3346E+01 -1.1282E+01 -1.0021E+01  1.7469E+02 
2223.559570 -2.6758E+01  2.7969E+00  1.7140E+01  5.7233E+01 -2.3289E+01 -1.3154E+01 -1.0098E+01  1.7508E+02 
2239.697266 -2.7430E+01  2.1186E+00  1.7104E+01  5.6338E+01 -2.2920E+01 -1.4478E+01 -9.9039E+00  1.7435E+02 
2255.834717 -2.6523E+01 -6.0483E+00  1.7136E+01  5.5844E+01 -2.2894E+01 -1.4030E+01 -9.9672E+00  1.7301E+02 
2271.972168 -2.7199E+01 -5.9460E+00  1.7062E+01  5.5031E+01 -2.2990E+01 -1.4141E+01 -1.0022E+01  1.7178E+02 
2288.109619 -2.8050E+01 -5.9742E+00  1.7024E+01  5.4610E+01 -2.2954E+01 -1.6241E+01 -1.0025E+01  1.7147E+02 
2304.247070 -2.7716E+01 -5.4972E+00  1.6971E+01  5.3543E+01 -2.3143E+01 -1.5241E+01 -9.9699E+00  1.7022E+02 
2320.384521 -2.7378E+01 -6.6258E+00  1.6924E+01  5.3153E+01 -2.3180E+01 -1.3702E+01 -9.8629E+00  1.6986E+02 
2336.521973 -2.5988E+01 -7.7094E+00  1.6913E+01  5.2303E+01 -2.2825E+01 -1.3962E+01 -9.8416E+00  1.6906E+02 
2352.659424 -2.6438E+01 -1.0353E+01  1.6840E+01  5.1781E+01 -2.3032E+01 -1.4572E+01 -9.9616E+00  1.6817E+02 
2368.796875 -2.7546E+01 -1.1190E+01  1.6835E+01  5.1317E+01 -2.3051E+01 -1.6473E+01 -1.0022E+01  1.6756E+02 
2384.934326 -2.7105E+01 -1.4842E+01  1.6761E+01  5.0398E+01 -2.3080E+01 -1.5086E+01 -9.9616E+00  1.6631E+02 
2401.071777 -2.7385E+01 -1.3376E+01  1.6743E+01  4.9875E+01 -2.2943E+01 -1.5432E+01 -9.9796E+00  1.6623E+02 
2417.209229 -2.7348E+01 -4.6678E+00  1.6862E+01  5.2176E+01 -2.3315E+01 -1.7950E+01 -9.9794E+00  1.6852E+02 
2433.346924 -2.7439E+01 -8.1693E+00  1.6858E+01  5.1687E+01 -2.4092E+01 -1.7144E+01 -9.9600E+00  1.6674E+02 
2449.484375 -2.6816E+01 -6.7064E-01  1.6758E+01  5.0752E+01 -2.3254E+01 -1.9689E+01 -1.0067E+01  1.6671E+02 
2465.621826 -2.8482E+01 -1.0788E+01  1.6711E+01  5.0024E+01 -2.3465E+01 -1.9585E+01 -1.0046E+01  1.6591E+02 
2481.759277 -2.8061E+01 -1.0037E+01  1.6710E+01  4.9167E+01 -2.3402E+01 -2.0047E+01 -9.9759E+00  1.6515E+02 
2497.896729 -2.7447E+01 -9.9429E+00  1.6639E+01  4.8840E+01 -2.3379E+01 -2.0550E+01 -9.9540E+00  1.6404E+02 
2514.034180 -2.8098E+01 -1.6353E+00  1.6603E+01  4.8238E+01 -2.3458E+01 -1.7622E+01 -9.9991E+00  1.6451E+02 
2530.171631 -2.7122E+01 -9.7429E+00  1.6576E+01  4.7699E+01 -2.3307E+01 -2.0341E+01 -9.8100E+00  1.6290E+02 
2546.309082 -2.7513E+01 -1.9807E+01  1.6523E+01  4.6770E+01 -2.2650E+01 -2.0447E+01 -1.0139E+01  1.6100E+02 
2562.446533 -2.9126E+01 -1.3979E+01  1.6499E+01  4.5998E+01 -2.3088E+01 -2.0617E+01 -9.8303E+00  1.6091E+02 
2578.583984 -2.8996E+01 -1.4348E+01  1.6435E+01  4.5927E+01 -2.3328E+01 -2.4013E+01 -9.9567E+00  1.5999E+02 
2594.721436 -2.8919E+01 -1.2085E+01  1.6408E+01  4.4852E+01 -2.2722E+01 -2.0445E+01 -1.0047E+01  1.5908E+02 
2610.858887 -2.7892E+01 -1.7485E+01  1.6401E+01  4.3903E+01 -2.2895E+01 -2.3116E+01 -1.0181E+01  1.5786E+02 
2626.996582 -2.8306E+01 -1.6673E+01  1.6363E+01  4.3387E+01 -2.3066E+01 -2.0555E+01 -9.9211E+00  1.5708E+02 
2643.134033 -2.8548E+01 -1.4323E+01  1.6281E+01  4.2779E+01 -2.2948E+01 -2.0933E+01 -9.7920E+00  1.5753E+02 
2659.271484 -2.7402E+01 -1.6448E+01  1.6273E+01  4.2079E+01 -2.2846E+01 -1.9946E+01 -1.0029E+01  1.5596E+02 
2675.408936 -2.7639E+01 -1.8362E+01  1.6128E+01  4.1414E+01 -2.2378E+01 -2.1791E+01 -9.9264E+00  1.5529E+02 
2691.546387 -2.6987E+01 -1.2865E+01  1.6207E+01  4.0992E+01 -2.2659E+01 -2.2690E+01 -9.8701E+00  1.5358E+02 
2707.683838 -2.7567E+01 -1.3765E+01  1.6131E+01  4.0413E+01 -2.2796E+01 -2.1672E+01 -9.9358E+00  1.5259E+02 
2723.821289 -2.7527E+01 -1.0811E+01  1.6094E+01  3.9393E+01 -2.2333E+01 -2.0506E+01 -1.0041E+01  1.5157E+02 
2739.958740 -2.7044E+01 -1.1006E+01  1.6042E+01  3.8727E+01 -2.2134E+01 -2.1384E+01 -9.8078E+00  1.5075E+02 
2756.096191 -2.7997E+01 -1.4484E+01  1.6039E+01  3.7963E+01 -2.2267E+01 -2.1532E+01 -9.9597E+00  1.4962E+02 
2772.233643 -2.8181E+01 -5.9130E+00  1.5982E+01  3.7584E+01 -2.2542E+01 -2.2583E+01 -9.8252E+00  1.4834E+02 
2788.371094 -2.7933E+01 -1.1274E+01  1.5956E+01  3.6932E+01 -2.2338E+01 -2.3106E+01 -9.7535E+00  1.4779E+02 
2804.508789 -2.8081E+01 -1.3154E+01  1.5876E+01  3.6296E+01 -2.2225E+01 -2.1897E+01 -9.8481E+00  1.4706E+02 
2820.646240 -2.8525E+01 -8.5436E-01  1.5886E+01  3.5655E+01 -2.2136E+01 -2.4632E+01 -9.7252E+00  1.4664E+02 
2836.783691 -2.7625E+01 -5.7618E+00  1.5820E+01  3.4914E+01 -2.2447E+01 -2.2816E+01 -9.8089E+00  1.4536E+02 
2852.921143 -2.7813E+01 -1.4964E+00  1.5721E+01  3.4580E+01 -2.2212E+01 -2.2681E+01 -9.6638E+00  1.4314E+02 
2869.058594 -2.7832E+01 -3.3385E-01  1.5746E+01  3.3912E+01 -2.2223E+01 -2.2903E+01 -9.8294E+00  1.4326E+02 
2885.196045 -2.7995E+01  2.3792E+00  1.5688E+01  3.2835E+01 -2.2265E+01 -2.2445E+01 -9.7133E+00  1.4141E+02 
2901.333496 -2.6778E+01 -1.1997E+00  1.5694E+01  3.2315E+01 -2.1773E+01 -2.4719E+01 -9.7333E+00  1.4123E+02 
2917.470947 -2.8105E+01  5.1222E+00  1.5652E+01  3.1337E+01 -2.2006E+01 -2.2572E+01 -9.7796E+00  1.3967E+02 
