!Agilent Technologies,E8358A,US42080705,A.07.50.37
!Agilent E8358A: A.07.50.37
!Date: Friday, June 04, 2010 07:28:21
!Correction: S11(Full 2 Port(1,2)) 
!S21(Full 2 Port(1,2)) 
!S12(Full 2 Port(1,2)) 
!S22(Full 2 Port(1,2)) 
!S2P File: Measurements: S11, S21, S12, S22:
# Hz S  dB   R 50
300000 -5.071815e+000 1.747579e+002 1.010387e+001 1.123416e+002 -5.325354e+001 2.484588e+001 -3.775711e-001 -1.767810e+002
3112406.25 -5.901465e+000 1.792213e+002 -4.597925e+000 -1.502373e+002 -6.136357e+001 -1.202719e+002 -1.339974e-001 1.795806e+002
5924812.5 -5.903282e+000 -1.794824e+002 -4.146271e-001 -1.253556e+002 -5.327945e+001 4.739832e+001 -1.279593e-001 1.789410e+002
8737218.75 -5.961706e+000 -1.784310e+002 2.563731e+000 -1.172173e+002 -5.476697e+001 1.528923e+002 -1.695454e-001 1.782221e+002
11549625 -5.983441e+000 -1.777592e+002 4.734634e+000 -1.148860e+002 -7.234035e+001 -2.629203e+001 -2.525864e-001 1.772332e+002
14362031.25 -5.922358e+000 -1.771626e+002 6.642892e+000 -1.133706e+002 -6.276971e+001 -6.181123e+001 -2.093238e-001 1.767177e+002
17174437.5 -5.829064e+000 -1.762743e+002 8.084556e+000 -1.122455e+002 -5.536459e+001 8.366050e+001 -2.026333e-001 1.766306e+002
19986843.75 -5.870934e+000 -1.754922e+002 9.354517e+000 -1.128444e+002 -5.805755e+001 1.123400e+002 -2.129982e-001 1.758225e+002
22799250 -5.788912e+000 -1.748048e+002 1.033893e+001 -1.133022e+002 -6.117892e+001 -3.034048e-001 -2.475561e-001 1.751740e+002
25611656.25 -5.773431e+000 -1.742087e+002 1.134982e+001 -1.137786e+002 -5.561367e+001 1.742780e+002 -2.184149e-001 1.748657e+002
28424062.5 -5.682251e+000 -1.733056e+002 1.216893e+001 -1.138298e+002 -5.861932e+001 1.218333e+002 -2.596584e-001 1.744595e+002
31236468.75 -5.646738e+000 -1.726554e+002 1.293691e+001 -1.149864e+002 -6.037425e+001 -1.340506e+002 -2.971460e-001 1.739150e+002
34048875 -5.572787e+000 -1.724789e+002 1.366956e+001 -1.156888e+002 -5.787899e+001 2.231111e+001 -3.122163e-001 1.735912e+002
36861281.25 -5.517344e+000 -1.720132e+002 1.419762e+001 -1.170630e+002 -4.900523e+001 6.847352e+001 -3.438390e-001 1.729894e+002
39673687.5 -5.448799e+000 -1.716534e+002 1.488891e+001 -1.178736e+002 -5.528605e+001 1.434117e+002 -3.177554e-001 1.725318e+002
42486093.75 -5.331882e+000 -1.710885e+002 1.539025e+001 -1.187417e+002 -5.443055e+001 4.411161e+001 -3.764797e-001 1.719765e+002
45298500 -5.307764e+000 -1.705246e+002 1.589798e+001 -1.200759e+002 -5.383073e+001 4.502634e+001 -3.692369e-001 1.714608e+002
48110906.25 -5.216617e+000 -1.699930e+002 1.637334e+001 -1.207893e+002 -5.297131e+001 1.099774e+002 -4.352126e-001 1.710955e+002
50923312.5 -5.180065e+000 -1.698174e+002 1.679502e+001 -1.219403e+002 -5.203946e+001 9.061650e+001 -4.322191e-001 1.707139e+002
53735718.75 -5.084558e+000 -1.692259e+002 1.719269e+001 -1.230106e+002 -5.829400e+001 1.372691e+002 -5.062662e-001 1.704690e+002
56548125 -4.992057e+000 -1.694044e+002 1.761553e+001 -1.243324e+002 -6.076683e+001 1.342740e+002 -4.959865e-001 1.699817e+002
59360531.25 -4.942373e+000 -1.689815e+002 1.795868e+001 -1.258077e+002 -5.705680e+001 6.606147e+000 -5.674672e-001 1.692303e+002
62172937.5 -4.883418e+000 -1.689427e+002 1.828349e+001 -1.267652e+002 -5.716023e+001 9.744476e+001 -5.898821e-001 1.688710e+002
64985343.75 -4.776610e+000 -1.684682e+002 1.861683e+001 -1.280490e+002 -5.696354e+001 -1.459892e+002 -6.443617e-001 1.685221e+002
67797750 -4.763674e+000 -1.680988e+002 1.894657e+001 -1.290341e+002 -6.332532e+001 2.931551e+001 -6.265835e-001 1.681464e+002
70610156.25 -4.623057e+000 -1.679624e+002 1.924166e+001 -1.303900e+002 -5.679324e+001 9.631727e+001 -7.084453e-001 1.673428e+002
73422562.5 -4.589220e+000 -1.676225e+002 1.952264e+001 -1.313939e+002 -5.721872e+001 1.282171e+001 -7.606464e-001 1.670996e+002
76234968.75 -4.528014e+000 -1.677856e+002 1.978124e+001 -1.326954e+002 -5.419957e+001 9.185990e+001 -7.679719e-001 1.667471e+002
79047375 -4.410175e+000 -1.674536e+002 2.010056e+001 -1.336196e+002 -6.289564e+001 9.088670e+001 -8.012138e-001 1.661133e+002
81859781.25 -4.374191e+000 -1.672948e+002 2.034274e+001 -1.347891e+002 -4.834083e+001 4.626950e+001 -8.393665e-001 1.658100e+002
84672187.5 -4.262366e+000 -1.674435e+002 2.053331e+001 -1.360777e+002 -5.040065e+001 7.389046e+001 -9.100415e-001 1.653763e+002
87484593.75 -4.191809e+000 -1.672106e+002 2.080699e+001 -1.373948e+002 -5.128279e+001 8.257442e+001 -9.435755e-001 1.649455e+002
90297000 -4.134119e+000 -1.674513e+002 2.106638e+001 -1.383542e+002 -4.960718e+001 8.522683e+001 -9.717985e-001 1.645848e+002
93109406.25 -4.143904e+000 -1.671505e+002 2.120390e+001 -1.392483e+002 -5.170997e+001 7.201417e+001 -1.057172e+000 1.641806e+002
95921812.5 -3.975260e+000 -1.672762e+002 2.142113e+001 -1.408563e+002 -5.192391e+001 6.258254e+001 -1.120090e+000 1.634040e+002
98734218.75 -3.947013e+000 -1.673526e+002 2.164085e+001 -1.418443e+002 -5.647629e+001 6.049002e+000 -1.156852e+000 1.632981e+002
101546625 -3.875282e+000 -1.672654e+002 2.182786e+001 -1.429536e+002 -5.282878e+001 6.119524e+001 -1.207216e+000 1.628704e+002
104359031.25 -3.834930e+000 -1.673060e+002 2.195634e+001 -1.441065e+002 -5.091292e+001 3.871689e+001 -1.285609e+000 1.624334e+002
107171437.5 -3.678068e+000 -1.672800e+002 2.221931e+001 -1.454138e+002 -5.246078e+001 3.637133e+001 -1.350598e+000 1.617248e+002
109983843.75 -3.700134e+000 -1.674648e+002 2.233071e+001 -1.462319e+002 -5.210306e+001 6.542558e+001 -1.397316e+000 1.616518e+002
112796250 -3.619102e+000 -1.676841e+002 2.249260e+001 -1.477707e+002 -5.953200e+001 1.225439e+002 -1.457441e+000 1.609233e+002
115608656.25 -3.529401e+000 -1.677498e+002 2.266970e+001 -1.488663e+002 -5.170910e+001 7.793131e+001 -1.561814e+000 1.607215e+002
118421062.5 -3.454998e+000 -1.676776e+002 2.279529e+001 -1.499566e+002 -5.248904e+001 7.375852e+001 -1.609271e+000 1.602795e+002
121233468.75 -3.447951e+000 -1.680164e+002 2.295656e+001 -1.510414e+002 -4.769876e+001 3.902507e+001 -1.690382e+000 1.603059e+002
124045875 -3.412399e+000 -1.681587e+002 2.306451e+001 -1.526035e+002 -5.174657e+001 1.013996e+002 -1.773258e+000 1.596095e+002
126858281.25 -3.361396e+000 -1.681319e+002 2.319063e+001 -1.537219e+002 -5.033364e+001 4.879370e+001 -1.830754e+000 1.590400e+002
129670687.5 -3.332375e+000 -1.680274e+002 2.338385e+001 -1.546929e+002 -5.007545e+001 9.016118e+001 -1.923000e+000 1.588229e+002
132483093.75 -3.293958e+000 -1.684290e+002 2.343891e+001 -1.561637e+002 -4.831063e+001 3.279406e+001 -1.969001e+000 1.582448e+002
135295500 -3.217372e+000 -1.687393e+002 2.356616e+001 -1.572762e+002 -5.484879e+001 7.515280e+001 -2.075280e+000 1.583306e+002
138107906.25 -3.177692e+000 -1.683860e+002 2.369807e+001 -1.584477e+002 -4.995152e+001 2.802353e+001 -2.197644e+000 1.577489e+002
140920312.5 -3.120854e+000 -1.687251e+002 2.376890e+001 -1.595938e+002 -5.091301e+001 8.455557e+001 -2.263799e+000 1.575506e+002
143732718.75 -3.012165e+000 -1.689414e+002 2.393515e+001 -1.609967e+002 -4.802161e+001 4.940609e+001 -2.335906e+000 1.568993e+002
146545125 -2.999518e+000 -1.691585e+002 2.398669e+001 -1.621273e+002 -5.123464e+001 7.380559e+001 -2.458339e+000 1.567518e+002
149357531.25 -2.989042e+000 -1.693591e+002 2.405276e+001 -1.633087e+002 -4.768913e+001 8.252094e+001 -2.511206e+000 1.566659e+002
152169937.5 -2.943620e+000 -1.689608e+002 2.412912e+001 -1.640098e+002 -4.753186e+001 4.043478e+001 -2.640968e+000 1.567375e+002
154982343.75 -2.968566e+000 -1.696356e+002 2.419928e+001 -1.654909e+002 -5.170510e+001 2.500350e+001 -2.713071e+000 1.566401e+002
157794750 -2.933563e+000 -1.696156e+002 2.420722e+001 -1.664730e+002 -4.878955e+001 6.943985e+001 -2.840781e+000 1.562309e+002
160607156.25 -2.855327e+000 -1.696951e+002 2.431470e+001 -1.673416e+002 -4.695213e+001 7.953497e+001 -2.883183e+000 1.565099e+002
163419562.5 -2.857674e+000 -1.700608e+002 2.440148e+001 -1.684438e+002 -4.839974e+001 6.158851e+001 -2.940110e+000 1.559757e+002
166231968.75 -2.810219e+000 -1.703525e+002 2.443300e+001 -1.694518e+002 -5.224072e+001 8.130009e+001 -3.081363e+000 1.556151e+002
169044375 -2.800929e+000 -1.705022e+002 2.452030e+001 -1.703517e+002 -5.096614e+001 2.920530e+001 -3.119737e+000 1.556012e+002
171856781.25 -2.791161e+000 -1.705403e+002 2.458564e+001 -1.712338e+002 -4.675368e+001 6.739149e+001 -3.209028e+000 1.552611e+002
174669187.5 -2.792607e+000 -1.705083e+002 2.464682e+001 -1.724412e+002 -4.667238e+001 6.256297e+001 -3.295408e+000 1.546427e+002
177481593.75 -2.714121e+000 -1.703725e+002 2.471572e+001 -1.729156e+002 -4.892446e+001 4.114499e+001 -3.398277e+000 1.549984e+002
180294000 -2.746330e+000 -1.707439e+002 2.475858e+001 -1.736786e+002 -4.431136e+001 6.149795e+001 -3.555637e+000 1.545846e+002
183106406.25 -2.709273e+000 -1.708153e+002 2.479362e+001 -1.746972e+002 -4.898009e+001 7.102887e+001 -3.607695e+000 1.545837e+002
185918812.5 -2.682058e+000 -1.706304e+002 2.491352e+001 -1.753399e+002 -4.827042e+001 4.881715e+001 -3.680714e+000 1.543132e+002
188731218.75 -2.648119e+000 -1.710481e+002 2.499014e+001 -1.766129e+002 -4.874471e+001 4.355084e+001 -3.803149e+000 1.539143e+002
191543625 -2.623796e+000 -1.710718e+002 2.507609e+001 -1.772583e+002 -4.864130e+001 6.354080e+001 -3.925917e+000 1.538172e+002
194356031.25 -2.592579e+000 -1.711548e+002 2.519132e+001 -1.782358e+002 -4.662891e+001 4.899216e+001 -4.052812e+000 1.535314e+002
197168437.5 -2.568590e+000 -1.714179e+002 2.529545e+001 -1.792963e+002 -5.009538e+001 6.159356e+001 -4.146245e+000 1.534834e+002
199980843.75 -2.529621e+000 -1.714881e+002 2.536440e+001 1.797247e+002 -5.006461e+001 5.763195e+001 -4.332846e+000 1.525404e+002
202793250 -2.522429e+000 -1.715352e+002 2.543231e+001 1.787971e+002 -4.589932e+001 5.432921e+001 -4.434655e+000 1.527821e+002
205605656.25 -2.513815e+000 -1.714047e+002 2.548733e+001 1.779625e+002 -4.760711e+001 5.924738e+001 -4.599217e+000 1.526555e+002
208418062.5 -2.503247e+000 -1.713907e+002 2.559645e+001 1.768752e+002 -5.045977e+001 6.515742e+001 -4.754281e+000 1.523076e+002
211230468.75 -2.482247e+000 -1.718639e+002 2.572857e+001 1.756749e+002 -5.020938e+001 6.388937e+001 -4.993002e+000 1.521102e+002
214042875 -2.452793e+000 -1.718335e+002 2.575735e+001 1.746762e+002 -4.852083e+001 4.554997e+001 -5.150671e+000 1.525148e+002
216855281.25 -2.416274e+000 -1.718471e+002 2.584659e+001 1.733026e+002 -4.847951e+001 5.337788e+001 -5.291800e+000 1.518909e+002
219667687.5 -2.436109e+000 -1.718676e+002 2.590647e+001 1.723156e+002 -4.757293e+001 7.460968e+001 -5.509154e+000 1.524085e+002
222480093.75 -2.405527e+000 -1.721595e+002 2.597883e+001 1.710862e+002 -4.802770e+001 5.093902e+001 -5.733766e+000 1.523477e+002
225292500 -2.355341e+000 -1.720035e+002 2.606275e+001 1.700423e+002 -4.552308e+001 4.365517e+001 -5.931919e+000 1.525913e+002
228104906.25 -2.348291e+000 -1.724044e+002 2.609546e+001 1.688482e+002 -4.706043e+001 4.039119e+001 -6.140533e+000 1.530944e+002
230917312.5 -2.365100e+000 -1.723342e+002 2.616502e+001 1.674524e+002 -4.685666e+001 4.426879e+001 -6.391897e+000 1.529096e+002
233729718.75 -2.304280e+000 -1.724486e+002 2.623859e+001 1.662071e+002 -4.925763e+001 5.886783e+001 -6.607219e+000 1.540690e+002
236542125 -2.273078e+000 -1.723322e+002 2.629130e+001 1.653238e+002 -4.279812e+001 6.270644e+001 -6.852992e+000 1.541539e+002
239354531.25 -2.259675e+000 -1.724666e+002 2.636909e+001 1.636662e+002 -4.581124e+001 4.846034e+001 -7.075263e+000 1.549668e+002
242166937.5 -2.263805e+000 -1.726357e+002 2.640494e+001 1.624740e+002 -4.460619e+001 6.006383e+001 -7.254082e+000 1.560347e+002
244979343.75 -2.244574e+000 -1.725810e+002 2.641981e+001 1.611067e+002 -4.548373e+001 6.255476e+001 -7.556843e+000 1.572371e+002
247791750 -2.182947e+000 -1.727602e+002 2.645215e+001 1.595964e+002 -4.469514e+001 7.300129e+001 -7.749306e+000 1.579314e+002
250604156.25 -2.184077e+000 -1.729909e+002 2.652668e+001 1.584152e+002 -4.581359e+001 5.053863e+001 -7.955466e+000 1.591705e+002
253416562.5 -2.173742e+000 -1.729748e+002 2.649520e+001 1.569303e+002 -4.444236e+001 5.958225e+001 -8.200147e+000 1.611636e+002
256228968.75 -2.143578e+000 -1.729590e+002 2.654276e+001 1.558029e+002 -4.424390e+001 4.978949e+001 -8.435849e+000 1.628809e+002
259041375 -2.109979e+000 -1.730357e+002 2.656633e+001 1.544028e+002 -4.331159e+001 6.648344e+001 -8.521354e+000 1.644231e+002
261853781.25 -2.074907e+000 -1.732062e+002 2.658240e+001 1.528486e+002 -4.284050e+001 6.964964e+001 -8.713067e+000 1.664123e+002
264666187.5 -2.065479e+000 -1.731431e+002 2.654914e+001 1.514390e+002 -4.502520e+001 5.339882e+001 -8.932127e+000 1.685242e+002
267478593.75 -2.059791e+000 -1.730866e+002 2.657590e+001 1.501878e+002 -4.478507e+001 6.801575e+001 -9.093975e+000 1.704780e+002
270291000 -2.041749e+000 -1.733592e+002 2.656827e+001 1.485919e+002 -4.587391e+001 5.848630e+001 -9.028111e+000 1.730099e+002
273103406.25 -2.008375e+000 -1.739483e+002 2.654360e+001 1.469759e+002 -4.485790e+001 5.879564e+001 -9.018268e+000 1.756371e+002
275915812.5 -1.982084e+000 -1.741187e+002 2.650243e+001 1.455518e+002 -4.539408e+001 6.725861e+001 -9.033377e+000 1.779586e+002
278728218.75 -1.955080e+000 -1.742294e+002 2.649672e+001 1.439510e+002 -4.416670e+001 6.201000e+001 -9.034960e+000 -1.799053e+002
281540625 -1.955204e+000 -1.736721e+002 2.644254e+001 1.431239e+002 -4.441196e+001 5.931947e+001 -8.967373e+000 -1.780741e+002
284353031.25 -1.921645e+000 -1.742239e+002 2.640742e+001 1.413616e+002 -4.287510e+001 5.521250e+001 -8.895926e+000 -1.759977e+002
287165437.5 -1.894008e+000 -1.745508e+002 2.640530e+001 1.400908e+002 -4.811232e+001 5.669844e+001 -8.725716e+000 -1.731022e+002
289977843.75 -1.875803e+000 -1.742515e+002 2.633547e+001 1.390803e+002 -4.356147e+001 5.553900e+001 -8.611267e+000 -1.717899e+002
292790250 -1.861170e+000 -1.748916e+002 2.630848e+001 1.373783e+002 -4.300138e+001 5.878094e+001 -8.419188e+000 -1.695090e+002
295602656.25 -1.853765e+000 -1.745764e+002 2.622142e+001 1.362629e+002 -4.390914e+001 8.107176e+001 -8.301585e+000 -1.677000e+002
298415062.5 -1.784980e+000 -1.747187e+002 2.616273e+001 1.349533e+002 -4.598420e+001 5.492283e+001 -8.020838e+000 -1.668112e+002
301227468.75 -1.796239e+000 -1.749772e+002 2.607892e+001 1.336996e+002 -4.214605e+001 6.499651e+001 -7.822423e+000 -1.652901e+002
304039875 -1.818779e+000 -1.750126e+002 2.600267e+001 1.325253e+002 -4.456880e+001 6.959177e+001 -7.631567e+000 -1.642237e+002
306852281.25 -1.770749e+000 -1.752105e+002 2.594185e+001 1.312504e+002 -4.197555e+001 5.748425e+001 -7.468314e+000 -1.631381e+002
309664687.5 -1.744224e+000 -1.756709e+002 2.584641e+001 1.297369e+002 -4.289120e+001 5.989833e+001 -7.203878e+000 -1.621974e+002
312477093.75 -1.741577e+000 -1.755111e+002 2.576867e+001 1.289035e+002 -4.191916e+001 5.553609e+001 -6.951243e+000 -1.616987e+002
315289500 -1.685482e+000 -1.757554e+002 2.567441e+001 1.276529e+002 -4.266405e+001 5.467008e+001 -6.737145e+000 -1.606681e+002
318101906.25 -1.719394e+000 -1.757450e+002 2.558443e+001 1.265452e+002 -4.325410e+001 6.345020e+001 -6.544451e+000 -1.601962e+002
320914312.5 -1.688778e+000 -1.762793e+002 2.547477e+001 1.253984e+002 -4.393082e+001 5.469493e+001 -6.379379e+000 -1.595488e+002
323726718.75 -1.708968e+000 -1.762570e+002 2.542632e+001 1.243914e+002 -4.305110e+001 4.697971e+001 -6.069402e+000 -1.591598e+002
326539125 -1.673848e+000 -1.766607e+002 2.524681e+001 1.232903e+002 -4.436550e+001 5.194009e+001 -5.972827e+000 -1.589856e+002
329351531.25 -1.675405e+000 -1.764412e+002 2.517702e+001 1.223833e+002 -4.252777e+001 5.673742e+001 -5.751457e+000 -1.588783e+002
332163937.5 -1.588283e+000 -1.766326e+002 2.509338e+001 1.213729e+002 -4.329035e+001 5.512094e+001 -5.604796e+000 -1.590228e+002
334976343.75 -1.628927e+000 -1.770908e+002 2.500136e+001 1.201890e+002 -4.223117e+001 6.718926e+001 -5.438060e+000 -1.588978e+002
337788750 -1.601491e+000 -1.772394e+002 2.485880e+001 1.192830e+002 -4.270182e+001 5.166650e+001 -5.252681e+000 -1.592009e+002
340601156.25 -1.611524e+000 -1.770564e+002 2.474116e+001 1.185196e+002 -4.378864e+001 5.949905e+001 -5.132813e+000 -1.586384e+002
343413562.5 -1.603609e+000 -1.773880e+002 2.465925e+001 1.175770e+002 -4.391564e+001 5.369727e+001 -4.975515e+000 -1.587328e+002
346225968.75 -1.607364e+000 -1.774646e+002 2.451781e+001 1.165987e+002 -4.307901e+001 6.249640e+001 -4.838576e+000 -1.593825e+002
349038375 -1.591399e+000 -1.777628e+002 2.440628e+001 1.159906e+002 -4.184000e+001 6.301292e+001 -4.695599e+000 -1.593021e+002
351850781.25 -1.576341e+000 -1.779869e+002 2.432447e+001 1.150444e+002 -4.125759e+001 5.264848e+001 -4.593610e+000 -1.593876e+002
354663187.5 -1.566175e+000 -1.778477e+002 2.417816e+001 1.144897e+002 -4.490125e+001 6.054005e+001 -4.473810e+000 -1.595914e+002
357475593.75 -1.561195e+000 -1.781826e+002 2.410424e+001 1.136998e+002 -4.232859e+001 5.828300e+001 -4.353864e+000 -1.600171e+002
360288000 -1.510256e+000 -1.782277e+002 2.398850e+001 1.128276e+002 -4.325488e+001 5.942884e+001 -4.240431e+000 -1.602140e+002
363100406.25 -1.567611e+000 -1.782520e+002 2.382334e+001 1.121258e+002 -4.365417e+001 6.233195e+001 -4.122975e+000 -1.607711e+002
365912812.5 -1.555809e+000 -1.785470e+002 2.374251e+001 1.115736e+002 -4.258731e+001 5.882365e+001 -3.994168e+000 -1.606103e+002
368725218.75 -1.518686e+000 -1.785964e+002 2.368788e+001 1.107574e+002 -4.371306e+001 5.888047e+001 -3.951487e+000 -1.609797e+002
371537625 -1.536603e+000 -1.789810e+002 2.351532e+001 1.099300e+002 -4.256121e+001 4.065808e+001 -3.807148e+000 -1.611521e+002
374350031.25 -1.502352e+000 -1.790048e+002 2.340087e+001 1.096325e+002 -4.366768e+001 3.810663e+001 -3.836673e+000 -1.615235e+002
377162437.5 -1.519346e+000 -1.788562e+002 2.331292e+001 1.094232e+002 -4.186848e+001 5.334342e+001 -3.691022e+000 -1.617880e+002
379974843.75 -1.532827e+000 -1.794957e+002 2.322498e+001 1.084069e+002 -4.352030e+001 5.970676e+001 -3.587160e+000 -1.619544e+002
382787250 -1.496721e+000 -1.796521e+002 2.307649e+001 1.079221e+002 -4.179544e+001 4.926768e+001 -3.564099e+000 -1.621739e+002
385599656.25 -1.529780e+000 -1.793955e+002 2.297213e+001 1.074854e+002 -4.176286e+001 5.371106e+001 -3.470029e+000 -1.624274e+002
388412062.5 -1.546313e+000 -1.798363e+002 2.285619e+001 1.067618e+002 -4.287813e+001 6.394199e+001 -3.373731e+000 -1.629900e+002
391224468.75 -1.469329e+000 -1.798336e+002 2.276324e+001 1.063149e+002 -4.391315e+001 5.596814e+001 -3.350008e+000 -1.634173e+002
394036875 -1.470904e+000 -1.799933e+002 2.266992e+001 1.058096e+002 -4.368371e+001 4.691504e+001 -3.277850e+000 -1.634331e+002
396849281.25 -1.460477e+000 1.797777e+002 2.256290e+001 1.054000e+002 -4.317455e+001 5.076429e+001 -3.257886e+000 -1.638313e+002
399661687.5 -1.485796e+000 1.797462e+002 2.244429e+001 1.048840e+002 -4.123848e+001 5.451174e+001 -3.195104e+000 -1.642387e+002
402474093.75 -1.515973e+000 1.795671e+002 2.235323e+001 1.046334e+002 -4.386446e+001 5.113210e+001 -3.129251e+000 -1.641188e+002
405286500 -1.486017e+000 1.795536e+002 2.227086e+001 1.038753e+002 -4.133540e+001 5.565268e+001 -3.052439e+000 -1.647789e+002
408098906.25 -1.473882e+000 1.796790e+002 2.217325e+001 1.038880e+002 -4.174730e+001 6.591196e+001 -3.019953e+000 -1.648924e+002
410911312.5 -1.498998e+000 1.793476e+002 2.204341e+001 1.034899e+002 -4.247376e+001 4.922989e+001 -2.960463e+000 -1.649622e+002
413723718.75 -1.502357e+000 1.790921e+002 2.195772e+001 1.027958e+002 -4.463737e+001 4.573438e+001 -2.930642e+000 -1.653255e+002
416536125 -1.486315e+000 1.791355e+002 2.185216e+001 1.024292e+002 -4.272669e+001 5.769658e+001 -2.859248e+000 -1.658177e+002
419348531.25 -1.517774e+000 1.791969e+002 2.178690e+001 1.025301e+002 -4.215174e+001 3.893753e+001 -2.837389e+000 -1.658439e+002
422160937.5 -1.487125e+000 1.787706e+002 2.166528e+001 1.018184e+002 -4.197003e+001 4.389846e+001 -2.838654e+000 -1.662492e+002
424973343.75 -1.501822e+000 1.785392e+002 2.156288e+001 1.015228e+002 -4.267260e+001 4.457796e+001 -2.800907e+000 -1.666257e+002
